write to 0x20 ack data: 0x10 
read to 0x20 ack data: 0x6E 0xFF 0xFF 0xFF 0xFF 0xFF 0xFF 0xFF
write to 0x20 ack data: 0x10 
read to 0x20 ack data: 0x6E 0xFF 0xFF 0xFF 0xFF 0xFF 0xFF 0xFF
write to 0x20 ack data: 0x20 0x00 
write to 0x20 ack data: 0x28 0x00 
write to 0x20 ack data: 0x21 0x00 
write to 0x20 ack data: 0x29 0x00 
write to 0x20 ack data: 0x10 
read to 0x20 ack data: 0x6E 0xFF 0xFF 0xFF 0xFF 0xFF 0xFF 0xFF
write to 0x20 ack data: 0x10 
read to 0x20 ack data: 0x6E 0xFF 0xFF 0xFF 0xFF 0xFF 0xFF 0xFF
write to 0x20 ack data: 0x20 0x00 
write to 0x20 ack data: 0x28 0x00 
write to 0x20 ack data: 0x21 0x00 
write to 0x20 ack data: 0x29 0x00 
write to 0x20 ack data: 0x30 0x06 
write to 0x20 ack data: 0x30 0x03 
write to 0x20 ack data: 0x10 
read to 0x20 ack data: 0x6E 0xFF 0xFF 0xFF 0xFF 0xFF 0xFB 0xFF
write to 0x20 ack data: 0x10 
read to 0x20 ack data: 0x6E 0xFF 0xFF 0xFF 0xFF 0xFF 0xFF 0xFF
write to 0x20 ack data: 0x20 0x00 
write to 0x20 ack data: 0x28 0x00 
write to 0x20 ack data: 0x21 0x00 
write to 0x20 ack data: 0x29 0x00 
write to 0x20 ack data: 0x10 
read to 0x20 ack data: 0x6E 0xFF 0xFF 0xFF 0xFF 0xFD 0xFF 0xFF
write to 0x20 ack data: 0x10 
read to 0x20 ack data: 0x6E 0xFF 0xFF 0xFF 0xFF 0xFF 0xFF 0xFF
write to 0x20 ack data: 0x20 0x00 
write to 0x20 ack data: 0x28 0x00 
write to 0x20 ack data: 0x21 0x00 
write to 0x20 ack data: 0x29 0x00 
write to 0x20 ack data: 0x10 
read to 0x20 ack data: 0x6E 0xFF 0xFF 0xFF 0xFC 0xFF 0xFF 0xFF
write to 0x20 ack data: 0x10 
read to 0x20 ack data: 0x6E 0xFF 0xFF 0xFF 0xFF 0xFF 0xFF 0xFF
write to 0x20 ack data: 0x20 0x00 
write to 0x20 ack data: 0x28 0x00 
write to 0x20 ack data: 0x21 0x00 
write to 0x20 ack data: 0x29 0x00 
write to 0x20 ack data: 0x10 
read to 0x20 ack data: 0x6E 0xFF 0xFF 0xFB 0xFF 0xFF 0xFF 0xFF
write to 0x20 ack data: 0x10 
read to 0x20 ack data: 0x6E 0xFF 0xFF 0xFF 0xFF 0xFF 0xFF 0xFF
write to 0x20 ack data: 0x20 0x00 
write to 0x20 ack data: 0x28 0x00 
write to 0x20 ack data: 0x21 0x00 
write to 0x20 ack data: 0x29 0x00 
write to 0x20 ack data: 0x10 
read to 0x20 ack data: 0x6E 0xFF 0xFC 0xFF 0xFF 0xFF 0xFF 0xFF
write to 0x20 ack data: 0x10 
read to 0x20 ack data: 0x6E 0xFF 0xFF 0xFF 0xFF 0xFF 0xFF 0xFF
write to 0x20 ack data: 0x20 0x00 
write to 0x20 ack data: 0x28 0x00 
write to 0x20 ack data: 0x21 0x00 
write to 0x20 ack data: 0x29 0x00 
write to 0x20 ack data: 0x10 
read to 0x20 ack data: 0x6E 0xFB 0xFF 0xFF 0xFF 0xFF 0xFF 0xFF
write to 0x20 ack data: 0x10 
read to 0x20 ack data: 0x6E 0xFF 0xFF 0xFF 0xFF 0xFF 0xFF 0xFF
write to 0x20 ack data: 0x20 0x00 
write to 0x20 ack data: 0x28 0x00 
write to 0x20 ack data: 0x21 0x00 
write to 0x20 ack data: 0x29 0x00 
write to 0x20 ack data: 0x10 
read to 0x20 ack data: 0x6B 0xFF 0xFF 0xFF 0xFF 0xFF 0xFF 0xFF
write to 0x20 ack data: 0x10 
read to 0x20 ack data: 0x6E 0xFF 0xFF 0xFF 0xFF 0xFF 0xFF 0xFF
write to 0x20 ack data: 0x20 0x00 
write to 0x20 ack data: 0x28 0x00 
write to 0x20 ack data: 0x21 0x00 
write to 0x20 ack data: 0x29 0x00 
write to 0x20 ack data: 0x10 
read to 0x20 ack data: 0x70 0xFF 0xFF 0xFF 0xFF 0xFF 0xFF 0xFD
write to 0x20 ack data: 0x10 
read to 0x20 ack data: 0x6E 0xFF 0xFF 0xFF 0xFF 0xFF 0xFF 0xFF
write to 0x20 ack data: 0x20 0x00 
write to 0x20 ack data: 0x28 0x00 
write to 0x20 ack data: 0x21 0x00 
write to 0x20 ack data: 0x29 0x00 
write to 0x20 ack data: 0x10 
read to 0x20 ack data: 0x6E 0xFF 0xFF 0xFF 0xFF 0xFF 0xFF 0xFF
write to 0x20 ack data: 0x10 
read to 0x20 ack data: 0x6E 0xFF 0xFF 0xFF 0xFF 0xFF 0xFC 0xFF
write to 0x20 ack data: 0x20 0x00 
write to 0x20 ack data: 0x28 0x00 
write to 0x20 ack data: 0x21 0x00 
write to 0x20 ack data: 0x29 0x00 
write to 0x20 ack data: 0x10 
read to 0x20 ack data: 0x6E 0xFF 0xFF 0xFF 0xFF 0xFF 0xFF 0xFF
write to 0x20 ack data: 0x10 
read to 0x20 ack data: 0x6E 0xFF 0xFF 0xFF 0xFF 0xFD 0xFF 0xFF
write to 0x20 ack data: 0x30 0x00 
write to 0x50 ack data: 0x08 0x70 0xFC 0xFE 0x6E 0xFE 0xFF 0xFE 0xD0 0x2F 0xFF 0xFF 0xFF 0xFF 0xFF 0xFE 0x96 0xE4 
write to 0x50 nak
write to 0x50 nak
write to 0x50 nak
write to 0x50 nak
write to 0x50 nak
write to 0x50 nak
write to 0x50 nak
write to 0x50 nak
write to 0x50 nak
write to 0x50 nak
write to 0x50 nak
write to 0x50 nak
write to 0x50 nak
write to 0x50 nak
write to 0x50 nak
write to 0x50 nak
write to 0x50 nak
write to 0x50 nak
write to 0x50 nak
write to 0x50 nak
write to 0x50 nak
write to 0x50 nak
write to 0x50 nak
write to 0x50 nak
write to 0x50 nak
write to 0x50 nak
write to 0x50 nak
write to 0x50 nak
write to 0x50 nak
write to 0x50 nak
write to 0x50 nak
write to 0x50 nak
write to 0x50 nak
write to 0x50 nak
write to 0x50 nak
write to 0x50 nak
write to 0x50 nak
write to 0x50 nak
write to 0x50 nak
write to 0x50 nak
write to 0x50 nak
write to 0x50 nak
write to 0x50 nak
write to 0x50 nak
write to 0x50 nak
write to 0x50 nak
write to 0x50 nak
write to 0x50 nak
write to 0x50 nak
write to 0x50 nak
write to 0x50 nak
write to 0x50 nak
write to 0x50 nak
write to 0x50 nak
write to 0x50 nak
write to 0x50 nak
write to 0x50 nak
write to 0x50 nak
write to 0x50 nak
write to 0x50 nak
write to 0x50 nak
write to 0x50 nak
write to 0x50 nak
write to 0x50 nak
write to 0x50 nak
write to 0x50 nak
write to 0x50 nak
write to 0x50 nak
write to 0x50 nak
write to 0x50 nak
write to 0x50 nak
write to 0x50 nak
write to 0x50 nak
write to 0x50 nak
write to 0x50 nak
write to 0x50 nak
write to 0x50 nak
write to 0x50 ack data: 0xFF 0xFF 
write to 0x20 ack data: 0x20 0x00 
write to 0x20 ack data: 0x28 0x00 
write to 0x20 ack data: 0x21 0x00 
write to 0x20 ack data: 0x29 0x00 
write to 0x20 ack data: 0x10 
read to 0x20 ack data: 0x6E 0xFF 0xFF 0xFF 0xFF 0xFF 0xFF 0xFF
write to 0x50 ack data: 0x08 0x70 
read to 0x50 ack data: 0xFC 0xFE 0x6E 0xFE 0xFF 0xFE 0xD0 0x2F 0xFF 0xFF 0xFF 0xFF 0xFF 0xFE 0x96 0xE4
write to 0x20 ack data: 0x10 
read to 0x20 ack data: 0x6E 0xFF 0xFF 0xFF 0xFF 0xFF 0xFF 0xFF
write to 0x20 ack data: 0x20 0x00 
write to 0x20 ack data: 0x28 0x00 
write to 0x20 ack data: 0x21 0x00 
write to 0x20 ack data: 0x29 0x00 
write to 0x20 ack data: 0x10 
read to 0x20 ack data: 0x6E 0xFF 0xFF 0xFF 0xFF 0xFF 0xFF 0xFF
write to 0x20 ack data: 0x10 
read to 0x20 ack data: 0x6E 0xFF 0xFF 0xFF 0xFF 0xFF 0xFF 0xFF
write to 0x20 ack data: 0x20 0x00 
write to 0x20 ack data: 0x28 0x00 
write to 0x20 ack data: 0x21 0x00 
write to 0x20 ack data: 0x29 0x00 
write to 0x20 ack data: 0x10 
read to 0x20 ack data: 0x6E 0xFF 0xFF 0xFF 0xFF 0xFF 0xFF 0xFF
write to 0x20 ack data: 0x10 
read to 0x20 ack data: 0x6E 0xFF 0xFF 0xFF 0xFF 0xFF 0xFF 0xFF
write to 0x20 ack data: 0x20 0x00 
write to 0x20 ack data: 0x28 0x00 
write to 0x20 ack data: 0x21 0x00 
write to 0x20 ack data: 0x29 0x00 
write to 0x10 nak
write to 0x20 ack data: 0x00 
read to 0x20 ack data: 0x41 0x4D 0x43
write to 0x21 nak
write to 0x22 nak
write to 0x30 nak
write to 0x20 ack data: 0x10 
read to 0x20 ack data: 0x6E 0xFF 0xFF 0xFF 0xFF 0xFF 0xFF 0xFF
write to 0x20 ack data: 0x10 
read to 0x20 ack data: 0x6E 0xFF 0xFF 0xFF 0xFF 0xFF 0xFF 0xFF
write to 0x20 ack data: 0x20 0x00 
write to 0x20 ack data: 0x28 0x00 
write to 0x20 ack data: 0x21 0x00 
write to 0x20 ack data: 0x29 0x00 
write to 0x20 ack data: 0x10 
read to 0x20 ack data: 0x6E 0xFF 0xFF 0xFF 0xFF 0xFF 0xFF 0xFF
write to 0x20 ack data: 0x10 
read to 0x20 ack data: 0x6E 0xFF 0xFF 0xFF 0xFF 0xFF 0xFF 0xFF
write to 0x20 ack data: 0x20 0x00 
write to 0x20 ack data: 0x28 0x00 
write to 0x20 ack data: 0x21 0x00 
write to 0x20 ack data: 0x29 0x00 
write to 0x20 ack data: 0x10 
read to 0x20 ack data: 0x6E 0xFF 0xFF 0xFF 0xFF 0xFF 0xFF 0xFF
write to 0x20 ack data: 0x10 
read to 0x20 ack data: 0x6E 0xFF 0xFF 0xFF 0xFF 0xFF 0xFF 0xFF
write to 0x20 ack data: 0x20 0x00 
write to 0x20 ack data: 0x28 0x00 
write to 0x20 ack data: 0x21 0x00 
write to 0x20 ack data: 0x29 0x00 
write to 0x20 ack data: 0x10 
read to 0x20 ack data: 0x6E 0xFF 0xFF 0xFF 0xFF 0xFF 0xFF 0xFF
write to 0x20 ack data: 0x10 
read to 0x20 ack data: 0x6E 0xFF 0xFF 0xFF 0xFF 0xFF 0xFF 0xFF
write to 0x20 ack data: 0x20 0x00 
write to 0x20 ack data: 0x28 0x00 
write to 0x20 ack data: 0x21 0x00 
write to 0x20 ack data: 0x29 0x00 
write to 0x20 ack data: 0x10 
read to 0x20 ack data: 0x6E 0xFF 0xFF 0xFF 0xFF 0xFF 0xFF 0xFF
write to 0x20 ack data: 0x10 
read to 0x20 ack data: 0x6E 0xFF 0xFF 0xFF 0xFF 0xFF 0xFF 0xFF
write to 0x20 ack data: 0x20 0x00 
write to 0x20 ack data: 0x28 0x00 
write to 0x20 ack data: 0x21 0x00 
write to 0x20 ack data: 0x29 0x00 
write to 0x20 ack data: 0x10 
read to 0x20 ack data: 0x6E 0xFF 0xFF 0xFF 0xFF 0xFF 0xFF 0xFF
write to 0x20 ack data: 0x10 
read to 0x20 ack data: 0x6E 0xFF 0xFF 0xFF 0xFF 0xFF 0xFF 0xFF
write to 0x20 ack data: 0x20 0x00 
write to 0x20 ack data: 0x28 0x00 
write to 0x20 ack data: 0x21 0x00 
write to 0x20 ack data: 0x29 0x00 
write to 0x20 ack data: 0x10 
read to 0x20 ack data: 0x6E 0xFF 0xFF 0xFF 0xFF 0xFF 0xFF 0xFF
write to 0x20 ack data: 0x10 
read to 0x20 ack data: 0x6E 0xFF 0xFF 0xFF 0xFF 0xFF 0xFF 0xFF
write to 0x20 ack data: 0x20 0x00 
write to 0x20 ack data: 0x28 0x00 
write to 0x20 ack data: 0x21 0x00 
write to 0x20 ack data: 0x29 0x00 
write to 0x20 ack data: 0x10 
read to 0x20 ack data: 0x6E 0xFF 0xFF 0xFF 0xFF 0xFF 0xFF 0xFF
write to 0x20 ack data: 0x10 
read to 0x20 ack data: 0x6E 0xFF 0xFF 0xFF 0xFF 0xFF 0xFF 0xFF
write to 0x20 ack data: 0x20 0x00 
write to 0x20 ack data: 0x28 0x00 
write to 0x20 ack data: 0x21 0x00 
write to 0x20 ack data: 0x29 0x00 
write to 0x20 ack data: 0x10 
read to 0x20 ack data: 0x6E 0xFF 0xFF 0xFF 0xFF 0xFF 0xFF 0xFF
write to 0x20 ack data: 0x10 
read to 0x20 ack data: 0x6E 0xFF 0xFF 0xFF 0xFF 0xFF 0xFF 0xFF
write to 0x20 ack data: 0x20 0x00 
write to 0x20 ack data: 0x28 0x00 
write to 0x20 ack data: 0x21 0x00 
write to 0x20 ack data: 0x29 0x00 
write to 0x20 ack data: 0x10 
read to 0x20 ack data: 0x6E 0xFF 0xFF 0xFF 0xFF 0xFF 0xFF 0xFF
write to 0x20 ack data: 0x10 
read to 0x20 ack data: 0x6E 0xFF 0xFF 0xFF 0xFF 0xFF 0xFF 0xFF
write to 0x20 ack data: 0x20 0x00 
write to 0x20 ack data: 0x28 0x00 
write to 0x20 ack data: 0x21 0x00 
write to 0x20 ack data: 0x29 0x00 
write to 0x20 ack data: 0x10 
read to 0x20 ack data: 0xFD 0xFF 0xFF 0xFF 0xFF 0xFF 0xFF 0xFF
write to 0x20 ack data: 0x10 
read to 0x20 ack data: 0xFF 0xFF 0xFF 0xFF 0xFF 0xFF 0xFF 0xFF
write to 0x50 ack data: 0x1A 0x80 0xC3 0xCE 0xC9 0xC9 0xC1 0xBA 0xB1 0xA9 0xB6 0xAC 0xBE 0xB3 0xB6 0xB1 0xB4 0xA4 
write to 0x50 ack data: 0xFF 0xFF 
write to 0x50 ack data: 0x1A 0x90 0xCF 0xCF 0xCE 0xBC 0xCD 0xBE 0xCF 0xCC 0xCD 0xB9 0xB9 0xCF 0xA2 0xC5 0xDF 0xDF 
write to 0x50 ack data: 0xFF 0xFF 
write to 0x50 ack data: 0x1A 0xA0 0xA5 0x90 0x91 0x9A 0xDF 0xB0 0x8F 0x9A 0x91 0xC5 0xDF 0xC6 0xFF 0x4C 0xCB 0xAA 
write to 0x50 ack data: 0xFF 0xFF 
write to 0x50 ack data: 0x1A 0xB0 0x00 0x00 0x00 0x00 0x00 0x00 0x00 0x00 0x2E 0xD0 0xD0 0x2F 0xFF 0xF7 0xFF 0xFE 
write to 0x50 ack data: 0xFF 0xFF 
write to 0x50 ack data: 0x1A 0xC0 0xF7 0xD0 0x2F 0xFF 0xF7 0xFF 0xFF 0xFE 0xFF 0xFF 0xFF 0xCA 0xA8 0xFD 0x00 0xFF 
write to 0x50 ack data: 0xFF 0xFF 
write to 0x50 ack data: 0x1A 0xD0 0xFF 0xD0 0x1C 0xFF 0xF7 0xFF 0xFF 0xFF 0xFE 0xFF 0xFF 0xFF 0xFA 0xC6 0x8C 0x94 
write to 0x50 ack data: 0xFF 0xFF 
write to 0x50 ack data: 0x1A 0xE0 0xFE 0xFD 0xC6 0xFB 0xFF 0xFF 0xFF 0xFB 0xD0 0x00 0xDF 0xFF 0xFF 0xFF 0xFF 0xFF 
write to 0x50 ack data: 0xFF 0xFF 
write to 0x50 ack data: 0x1A 0xF0 0xFF 0xFF 0xFF 0xFF 0xFF 0xFF 0xFF 0xFF 0xFF 0xFF 0xF0 0x5D 0xF0 0x5D 0xF0 0x5D 
write to 0x50 ack data: 0xFF 0xFF 
write to 0x20 ack data: 0x30 0x01 
write to 0x20 ack data: 0x20 0x00 
write to 0x20 ack data: 0x28 0x00 
write to 0x20 ack data: 0x21 0x00 
write to 0x20 ack data: 0x29 0x00 
write to 0x50 ack data: 0x1A 0x80 
read to 0x50 ack data: 0xC3 0xCE 0xC9 0xC9 0xC1 0xBA 0xB1 0xA9 0xB6 0xAC 0xBE 0xB3 0xB6 0xB1 0xB4 0xA4
write to 0x50 ack data: 0x1A 0x90 
read to 0x50 ack data: 0xCF 0xCF 0xCE 0xBC 0xCD 0xBE 0xCF 0xCC 0xCD 0xB9 0xB9 0xCF 0xA2 0xC5 0xDF 0xDF
write to 0x50 ack data: 0x1A 0xA0 
read to 0x50 ack data: 0xA5 0x90 0x91 0x9A 0xDF 0xB0 0x8F 0x9A 0x91 0xC5 0xDF 0xC6 0xFF 0x4C 0xCB 0xAA
write to 0x50 ack data: 0x1A 0xB0 
read to 0x50 ack data: 0x00 0x00 0x00 0x00 0x00 0x00 0x00 0x00 0x2E 0xD0 0xD0 0x2F 0xFF 0xF7 0xFF 0xFE
write to 0x50 ack data: 0x1A 0xC0 
read to 0x50 ack data: 0xF7 0xD0 0x2F 0xFF 0xF7 0xFF 0xFF 0xFE 0xFF 0xFF 0xFF 0xCA 0xA8 0xFD 0x00 0xFF
write to 0x50 ack data: 0x1A 0xD0 
read to 0x50 ack data: 0xFF 0xD0 0x1C 0xFF 0xF7 0xFF 0xFF 0xFF 0xFE 0xFF 0xFF 0xFF 0xFA 0xC6 0x8C 0x94
write to 0x50 ack data: 0x1A 0xE0 
read to 0x50 ack data: 0xFE 0xFD 0xC6 0xFB 0xFF 0xFF 0xFF 0xFB 0xD0 0x00 0xDF 0xFF 0xFF 0xFF 0xFF 0xFF
write to 0x50 ack data: 0x1A 0xF0 
read to 0x50 ack data: 0xFF 0xFF 0xFF 0xFF 0xFF 0xFF 0xFF 0xFF 0xFF 0xFF 0xF0 0x5D 0xF0 0x5D 0xF0 0x5D
write to 0x20 ack data: 0x10 
read to 0x20 ack data: 0xFF 0xFF 0xFF 0xFD 0xFF 0xFF 0xFF 0xFF
write to 0x20 ack data: 0x10 
read to 0x20 ack data: 0xFF 0xFF 0xFF 0xFB 0xFE 0xFF 0xFF 0xFF
write to 0x20 ack data: 0x20 0x00 
write to 0x20 ack data: 0x28 0x00 
write to 0x20 ack data: 0x21 0x00 
write to 0x20 ack data: 0x29 0x00 
write to 0x20 ack data: 0x10 
read to 0x20 ack data: 0xFF 0xFF 0xFF 0xFE 0xFF 0xFF 0xFF 0xFF
write to 0x20 ack data: 0x10 
read to 0x20 ack data: 0xFF 0xFD 0xFF 0xFD 0xFF 0xFF 0xFF 0xFF
write to 0x20 ack data: 0x20 0x00 
write to 0x20 ack data: 0x28 0x00 
write to 0x20 ack data: 0x21 0x00 
write to 0x20 ack data: 0x29 0x00 
write to 0x20 ack data: 0x10 
read to 0x20 ack data: 0xFF 0xFD 0xFF 0xFE 0xFF 0xFF 0xFF 0xFF
write to 0x20 ack data: 0x10 
read to 0x20 ack data: 0xFF 0xFD 0xFF 0xFF 0xFF 0xFF 0xFF 0xFF
write to 0x20 ack data: 0x20 0x00 
write to 0x20 ack data: 0x28 0x00 
write to 0x20 ack data: 0x21 0x00 
write to 0x20 ack data: 0x29 0x00 
write to 0x20 ack data: 0x10 
read to 0x20 ack data: 0xFF 0xFF 0xFF 0xFF 0xFF 0xFF 0xFF 0xFD
write to 0x20 ack data: 0x10 
read to 0x20 ack data: 0xFF 0xFE 0xFF 0xFF 0xFF 0xFF 0xFF 0xFD
write to 0x20 ack data: 0x20 0x00 
write to 0x20 ack data: 0x28 0x00 
write to 0x20 ack data: 0x21 0x00 
write to 0x20 ack data: 0x29 0x00 
write to 0x20 ack data: 0x10 
read to 0x20 ack data: 0xFF 0xFF 0xFF 0xFF 0xFF 0xFF 0xFF 0xFF
write to 0x20 ack data: 0x10 
read to 0x20 ack data: 0xFF 0xFF 0xFF 0xFF 0xFF 0xFD 0xFF 0xFF
write to 0x20 ack data: 0x20 0x00 
write to 0x20 ack data: 0x28 0x00 
write to 0x20 ack data: 0x21 0x00 
write to 0x20 ack data: 0x29 0x00 
write to 0x20 ack data: 0x10 
read to 0x20 ack data: 0xFF 0xFF 0xFF 0xFF 0xFF 0xFC 0xFF 0xFF
write to 0x20 ack data: 0x10 
read to 0x20 ack data: 0xFF 0xFF 0xFF 0xFF 0xFE 0xFE 0xFF 0xFF
write to 0x20 ack data: 0x20 0x00 
write to 0x20 ack data: 0x28 0x00 
write to 0x20 ack data: 0x21 0x00 
write to 0x20 ack data: 0x29 0x00 
write to 0x20 ack data: 0x10 
read to 0x20 ack data: 0xFF 0xFF 0xFF 0xFD 0xFF 0xFD 0xFF 0xFF
write to 0x20 ack data: 0x10 
read to 0x20 ack data: 0xFF 0xFF 0xFF 0xFC 0xFF 0xFF 0xFF 0xFF
write to 0x20 ack data: 0x20 0x00 
write to 0x20 ack data: 0x28 0x00 
write to 0x20 ack data: 0x21 0x00 
write to 0x20 ack data: 0x29 0x00 
write to 0x20 ack data: 0x10 
read to 0x20 ack data: 0xFF 0xFF 0xFD 0xFE 0xFF 0xFF 0xFF 0xFF
write to 0x20 ack data: 0x10 
read to 0x20 ack data: 0xFF 0xFF 0xFF 0xFE 0xFF 0xFF 0xFF 0xFF
write to 0x20 ack data: 0x20 0x00 
write to 0x20 ack data: 0x28 0x00 
write to 0x20 ack data: 0x21 0x00 
write to 0x20 ack data: 0x29 0x00 
write to 0x20 ack data: 0x10 
read to 0x20 ack data: 0xFF 0xFC 0xFF 0xFF 0xFF 0xFF 0xFF 0xFF
write to 0x20 ack data: 0x10 
read to 0x20 ack data: 0xFF 0xFC 0xFF 0xFF 0xFF 0xFF 0xFF 0xFF
write to 0x50 ack data: 0x08 0x80 0xFE 0xFF 0x73 0xFE 0xFF 0xF6 0x2E 0xF7 0xFF 0xFF 0xD0 0x2F 0xFF 0xF3 0xFF 0xFF 
write to 0x50 nak
write to 0x50 nak
write to 0x50 nak
write to 0x50 nak
write to 0x50 nak
write to 0x50 nak
write to 0x50 nak
write to 0x50 nak
write to 0x50 nak
write to 0x50 nak
write to 0x50 nak
write to 0x50 nak
write to 0x50 nak
write to 0x50 nak
write to 0x50 nak
write to 0x50 nak
write to 0x50 nak
write to 0x50 nak
write to 0x50 nak
write to 0x50 nak
write to 0x50 nak
write to 0x50 nak
write to 0x50 nak
write to 0x50 nak
write to 0x50 nak
write to 0x50 nak
write to 0x50 nak
write to 0x50 nak
write to 0x50 nak
write to 0x50 nak
write to 0x50 nak
write to 0x50 nak
write to 0x50 nak
write to 0x50 nak
write to 0x50 nak
write to 0x50 nak
write to 0x50 nak
write to 0x50 nak
write to 0x50 nak
write to 0x50 nak
write to 0x50 nak
write to 0x50 nak
write to 0x50 nak
write to 0x50 nak
write to 0x50 nak
write to 0x50 nak
write to 0x50 nak
write to 0x50 nak
write to 0x50 nak
write to 0x50 nak
write to 0x50 nak
write to 0x50 nak
write to 0x50 nak
write to 0x50 nak
write to 0x50 nak
write to 0x50 nak
write to 0x50 nak
write to 0x50 nak
write to 0x50 nak
write to 0x50 nak
write to 0x50 nak
write to 0x50 nak
write to 0x50 nak
write to 0x50 nak
write to 0x50 nak
write to 0x50 nak
write to 0x50 nak
write to 0x50 nak
write to 0x50 nak
write to 0x50 nak
write to 0x50 nak
write to 0x50 nak
write to 0x50 nak
write to 0x50 nak
write to 0x50 nak
write to 0x50 nak
write to 0x50 nak
write to 0x50 ack data: 0xFF 0xFF 
write to 0x50 ack data: 0x1B 0x00 0xC3 0xCE 0xC9 0xCB 0xC1 0xBA 0xB1 0xA9 0xB6 0xAC 0xBE 0xB3 0xB6 0xB1 0xB4 0xA4 
write to 0x50 ack data: 0xFF 0xFF 
write to 0x50 ack data: 0x1B 0x10 0xCF 0xCF 0xCE 0xBC 0xCD 0xBE 0xCF 0xCC 0xCD 0xB9 0xB9 0xCF 0xA2 0xC5 0xDF 0xDF 
write to 0x50 ack data: 0xFF 0xFF 
write to 0x50 ack data: 0x1B 0x20 0xBE 0x93 0x9E 0x8D 0x92 0xDF 0xA5 0x90 0x91 0x9A 0xC5 0xDF 0xCF 0xC6 0xFF 0x5F 
write to 0x50 ack data: 0xFF 0xFF 
write to 0x50 ack data: 0x1B 0x30 0xFF 0xFE 0xD4 0xA3 0x07 0xDF 0x3F 0xFE 0x3F 0xFF 0xD0 0x49 0x2D 0x77 0xF7 0xFB 
write to 0x50 ack data: 0xFF 0xFF 
write to 0x50 ack data: 0x1B 0x40 0xC6 0xDB 0x58 0xC5 0x9E 0xD0 0xFF 0xFF 0xD0 0x45 0xFF 0xF7 0xD3 0x62 0xFF 0xEF 
write to 0x50 ack data: 0xFF 0xFF 
write to 0x50 ack data: 0x1B 0x50 0x9C 0x31 0xFE 0xFF 0x73 0xFE 0xFF 0xF6 0x2E 0xF7 0xFF 0xFF 0xD0 0x2F 0xFF 0xF3 
write to 0x50 ack data: 0xFF 0xFF 
write to 0x50 ack data: 0x1B 0x60 0xFF 0xFF 0xFF 0xFE 0xD8 0xA1 0x96 0xA2 0xFF 0xFE 0xF7 0xD0 0x1C 0xFF 0xF7 0xFF 
write to 0x50 ack data: 0xFF 0xFF 
write to 0x50 ack data: 0x1B 0x70 0xFF 0xFF 0xFE 0xFF 0xFF 0xFF 0xFA 0xC6 0xFD 0x8C 0x8C 0xFE 0xFD 0xC6 0xFB 0xFF 
write to 0x50 ack data: 0xFF 0xFF 
write to 0x20 ack data: 0x30 0x05 
write to 0x20 ack data: 0x20 0x00 
write to 0x20 ack data: 0x28 0x00 
write to 0x20 ack data: 0x21 0x00 
write to 0x20 ack data: 0x29 0x00 
write to 0x50 ack data: 0x1B 0x00 
read to 0x50 ack data: 0xC3 0xCE 0xC9 0xCB 0xC1 0xBA 0xB1 0xA9 0xB6 0xAC 0xBE 0xB3 0xB6 0xB1 0xB4 0xA4
write to 0x50 ack data: 0x1B 0x10 
read to 0x50 ack data: 0xCF 0xCF 0xCE 0xBC 0xCD 0xBE 0xCF 0xCC 0xCD 0xB9 0xB9 0xCF 0xA2 0xC5 0xDF 0xDF
write to 0x50 ack data: 0x1B 0x20 
read to 0x50 ack data: 0xBE 0x93 0x9E 0x8D 0x92 0xDF 0xA5 0x90 0x91 0x9A 0xC5 0xDF 0xCF 0xC6 0xFF 0x5F
write to 0x50 ack data: 0x1B 0x30 
read to 0x50 ack data: 0xFF 0xFE 0xD4 0xA3 0x07 0xDF 0x3F 0xFE 0x3F 0xFF 0xD0 0x49 0x2D 0x77 0xF7 0xFB
write to 0x50 ack data: 0x1B 0x40 
read to 0x50 ack data: 0xC6 0xDB 0x58 0xC5 0x9E 0xD0 0xFF 0xFF 0xD0 0x45 0xFF 0xF7 0xD3 0x62 0xFF 0xEF
write to 0x50 ack data: 0x1B 0x50 
read to 0x50 ack data: 0x9C 0x31 0xFE 0xFF 0x73 0xFE 0xFF 0xF6 0x2E 0xF7 0xFF 0xFF 0xD0 0x2F 0xFF 0xF3
write to 0x50 ack data: 0x1B 0x60 
read to 0x50 ack data: 0xFF 0xFF 0xFF 0xFE 0xD8 0xA1 0x96 0xA2 0xFF 0xFE 0xF7 0xD0 0x1C 0xFF 0xF7 0xFF
write to 0x50 ack data: 0x1B 0x70 
read to 0x50 ack data: 0xFF 0xFF 0xFE 0xFF 0xFF 0xFF 0xFA 0xC6 0xFD 0x8C 0x8C 0xFE 0xFD 0xC6 0xFB 0xFF
write to 0x20 ack data: 0x10 
read to 0x20 ack data: 0xFF 0xFE 0xFF 0xFF 0xFF 0xFF 0xFF 0xFF
write to 0x50 ack data: 0x08 0x80 
read to 0x50 ack data: 0xFE 0xFF 0x73 0xFE 0xFF 0xF6 0x2E 0xF7 0xFF 0xFF 0xD0 0x2F 0xFF 0xF3 0xFF 0xFF
write to 0x20 ack data: 0x10 
read to 0x20 ack data: 0xFF 0xFF 0xFE 0xFF 0xFF 0xFF 0xFF 0xFD
write to 0x20 ack data: 0x20 0x00 
write to 0x20 ack data: 0x28 0x00 
write to 0x20 ack data: 0x21 0x00 
write to 0x20 ack data: 0x29 0x00 
write to 0x20 ack data: 0x10 
read to 0x20 ack data: 0xFD 0xFF 0xFF 0xFF 0xFF 0xFF 0xFF 0xFF
write to 0x20 ack data: 0x10 
read to 0x20 ack data: 0xFF 0xFE 0xFF 0xFF 0xFF 0xFF 0xFF 0xFF
write to 0x20 ack data: 0x20 0x00 
write to 0x20 ack data: 0x28 0x00 
write to 0x20 ack data: 0x21 0x00 
write to 0x20 ack data: 0x29 0x00 
write to 0x20 ack data: 0x10 
read to 0x20 ack data: 0xFE 0xFF 0xFF 0xFF 0xFF 0xFF 0xFF 0xFF
write to 0x20 ack data: 0x10 
read to 0x20 ack data: 0xFF 0xFF 0xFF 0xFF 0xFF 0xFF 0xFF 0xFF
write to 0x20 ack data: 0x20 0x00 
write to 0x20 ack data: 0x28 0x00 
write to 0x20 ack data: 0x21 0x00 
write to 0x20 ack data: 0x29 0x00 
write to 0x20 ack data: 0x10 
read to 0x20 ack data: 0xFF 0xFF 0xFF 0xFF 0xFF 0xFF 0xFF 0xF1
write to 0x20 ack data: 0x10 
read to 0x20 ack data: 0xFF 0xFF 0xFF 0xFF 0xFF 0xFF 0xFD 0xFD
write to 0x20 ack data: 0x20 0x00 
write to 0x20 ack data: 0x28 0x00 
write to 0x20 ack data: 0x21 0x00 
write to 0x20 ack data: 0x29 0x00 
write to 0x20 ack data: 0x10 
read to 0x20 ack data: 0xFF 0xFF 0xFF 0xFF 0xFF 0xFF 0xFD 0xFF
write to 0x20 ack data: 0x10 
read to 0x20 ack data: 0xFF 0xFF 0xFF 0xFF 0xFF 0xFF 0xFF 0xFF
write to 0x20 ack data: 0x20 0x00 
write to 0x20 ack data: 0x28 0x00 
write to 0x20 ack data: 0x21 0x00 
write to 0x20 ack data: 0x29 0x00 
write to 0x20 ack data: 0x10 
read to 0x20 ack data: 0xFF 0xFF 0xFF 0xFF 0xFF 0xFF 0xFF 0xFF
write to 0x20 ack data: 0x10 
read to 0x20 ack data: 0xFF 0xFF 0xFF 0xFF 0xFC 0xFD 0xFD 0xFE
write to 0x20 ack data: 0x20 0x00 
write to 0x20 ack data: 0x28 0x00 
write to 0x20 ack data: 0x21 0x00 
write to 0x20 ack data: 0x29 0x00 
write to 0x20 ack data: 0x10 
read to 0x20 ack data: 0xFF 0xFF 0xFF 0xFF 0xFF 0xFF 0xFF 0xFF
write to 0x20 ack data: 0x10 
read to 0x20 ack data: 0xFF 0xFF 0xFF 0xFF 0xFD 0xFF 0xFF 0xFD
write to 0x20 ack data: 0x20 0x00 
write to 0x20 ack data: 0x28 0x00 
write to 0x20 ack data: 0x21 0x00 
write to 0x20 ack data: 0x29 0x00 
write to 0x20 ack data: 0x10 
read to 0x20 ack data: 0xFF 0xFF 0xFF 0xFF 0xFF 0xFD 0xFF 0xFF
write to 0x20 ack data: 0x10 
read to 0x20 ack data: 0xFF 0xFF 0xFF 0xFF 0xFD 0xFF 0xFE 0xFF
write to 0x20 ack data: 0x20 0x00 
write to 0x20 ack data: 0x28 0x00 
write to 0x20 ack data: 0x21 0x00 
write to 0x20 ack data: 0x29 0x00 
write to 0x20 ack data: 0x10 
read to 0x20 ack data: 0xFF 0xFF 0xFF 0xFF 0xFF 0xFF 0xFF 0xFF
write to 0x20 ack data: 0x10 
read to 0x20 ack data: 0xF8 0xFF 0xFF 0xFF 0xFF 0xFD 0xFF 0xFF
write to 0x20 ack data: 0x20 0x00 
write to 0x20 ack data: 0x28 0x00 
write to 0x20 ack data: 0x21 0x00 
write to 0x20 ack data: 0x29 0x00 
write to 0x20 ack data: 0x10 
read to 0x20 ack data: 0x6E 0xFF 0xFF 0xFF 0xFF 0xFF 0xFF 0xFF
write to 0x20 ack data: 0x10 
read to 0x20 ack data: 0xF8 0xFF 0xFF 0xFF 0xFF 0xFF 0xFF 0xFF
write to 0x20 ack data: 0x20 0x00 
write to 0x20 ack data: 0x28 0x00 
write to 0x20 ack data: 0x21 0x00 
write to 0x20 ack data: 0x29 0x00 
write to 0x10 nak
write to 0x20 ack data: 0x00 
read to 0x20 ack data: 0x41 0x4D 0x43
write to 0x21 nak
write to 0x22 nak
write to 0x30 nak
write to 0x20 ack data: 0x10 
read to 0x20 ack data: 0xFF 0xFF 0xFF 0xFF 0xFF 0xFF 0xFF 0xFF
write to 0x20 ack data: 0x10 
read to 0x20 ack data: 0xFF 0xFF 0xFF 0xFF 0xFF 0xFF 0xFF 0xFF
write to 0x20 ack data: 0x20 0x00 
write to 0x20 ack data: 0x28 0x00 
write to 0x20 ack data: 0x21 0x00 
write to 0x20 ack data: 0x29 0x00 
write to 0x20 ack data: 0x10 
read to 0x20 ack data: 0xFF 0xFF 0xFF 0xFF 0xFD 0xFF 0xFD 0xFF
write to 0x20 ack data: 0x10 
read to 0x20 ack data: 0xFF 0xFF 0xFF 0xFF 0xFB 0xFF 0xFF 0xFF
write to 0x20 ack data: 0x20 0x00 
write to 0x20 ack data: 0x28 0x00 
write to 0x20 ack data: 0x21 0x00 
write to 0x20 ack data: 0x29 0x00 
write to 0x20 ack data: 0x10 
read to 0x20 ack data: 0xFF 0xFF 0xFF 0xFF 0xFF 0xFE 0xFF 0xFF
write to 0x20 ack data: 0x10 
read to 0x20 ack data: 0xFF 0xFF 0xFF 0xFD 0xFF 0xFF 0xFF 0xFF
write to 0x20 ack data: 0x20 0x00 
write to 0x20 ack data: 0x28 0x00 
write to 0x20 ack data: 0x21 0x00 
write to 0x20 ack data: 0x29 0x00 
write to 0x20 ack data: 0x10 
read to 0x20 ack data: 0xFF 0xFF 0xFF 0xFF 0xFD 0xFF 0xFF 0xFF
write to 0x20 ack data: 0x30 0x00 
write to 0x20 ack data: 0x31 0x06 
write to 0x20 ack data: 0x30 0x02 
write to 0x50 ack data: 0x08 0x90 0xFE 0xFE 0x6E 0xFE 0xFF 0xFE 0xD0 0x28 0xFF 0xFB 0xFF 0xFF 0xFF 0xFE 0xA8 0x92 
write to 0x50 nak
write to 0x50 nak
write to 0x50 nak
write to 0x50 nak
write to 0x50 nak
write to 0x50 nak
write to 0x50 nak
write to 0x50 nak
write to 0x50 nak
write to 0x50 nak
write to 0x50 nak
write to 0x50 nak
write to 0x50 nak
write to 0x50 nak
write to 0x50 nak
write to 0x50 nak
write to 0x50 nak
write to 0x50 nak
write to 0x50 nak
write to 0x50 nak
write to 0x50 nak
write to 0x50 nak
write to 0x50 nak
write to 0x50 nak
write to 0x50 nak
write to 0x50 nak
write to 0x50 nak
write to 0x50 nak
write to 0x50 nak
write to 0x50 nak
write to 0x50 nak
write to 0x50 nak
write to 0x50 nak
write to 0x50 nak
write to 0x50 nak
write to 0x50 nak
write to 0x50 nak
write to 0x50 nak
write to 0x50 nak
write to 0x50 nak
write to 0x50 nak
write to 0x50 nak
write to 0x50 nak
write to 0x50 nak
write to 0x50 nak
write to 0x50 nak
write to 0x50 nak
write to 0x50 nak
write to 0x50 nak
write to 0x50 nak
write to 0x50 nak
write to 0x50 nak
write to 0x50 nak
write to 0x50 nak
write to 0x50 nak
write to 0x50 nak
write to 0x50 nak
write to 0x50 nak
write to 0x50 nak
write to 0x50 nak
write to 0x50 nak
write to 0x50 nak
write to 0x50 nak
write to 0x50 nak
write to 0x50 nak
write to 0x50 nak
write to 0x50 nak
write to 0x50 nak
write to 0x50 nak
write to 0x50 nak
write to 0x50 nak
write to 0x50 nak
write to 0x50 nak
write to 0x50 nak
write to 0x50 nak
write to 0x50 nak
write to 0x50 nak
write to 0x50 ack data: 0xFF 0xFF 
write to 0x20 ack data: 0x10 
read to 0x20 ack data: 0xFF 0xFF 0xFF 0xFF 0xFF 0xFF 0xFF 0xFF
write to 0x20 ack data: 0x20 0x00 
write to 0x20 ack data: 0x28 0x00 
write to 0x20 ack data: 0x21 0x00 
write to 0x20 ack data: 0x29 0x00 
write to 0x20 ack data: 0x10 
read to 0x20 ack data: 0xFF 0xFC 0xFF 0xFF 0xFF 0xFF 0xFF 0xFC
write to 0x50 ack data: 0x08 0x90 
read to 0x50 ack data: 0xFE 0xFE 0x6E 0xFE 0xFF 0xFE 0xD0 0x28 0xFF 0xFB 0xFF 0xFF 0xFF 0xFE 0xA8 0x92
write to 0x20 ack data: 0x10 
read to 0x20 ack data: 0xFF 0xFC 0xFF 0xFF 0xFF 0xFF 0xFF 0xFF
write to 0x20 ack data: 0x20 0x00 
write to 0x20 ack data: 0x28 0x00 
write to 0x20 ack data: 0x21 0x00 
write to 0x20 ack data: 0x29 0x00 
write to 0x20 ack data: 0x10 
read to 0x20 ack data: 0xFF 0xFF 0xFF 0xFF 0xFF 0xFF 0xFF 0xFF

